T3A58 000:081.214   SEGGER J-Link V7.58a Log File
T3A58 000:081.354   DLL Compiled: Nov 11 2021 16:50:12
T3A58 000:081.359   Logging started @ 2021-11-30 04:29
T3A58 000:081.364 - 81.366ms
T3A58 000:081.372 JLINK_SetWarnOutHandler(...)
T3A58 000:081.378 - 0.008ms
T3A58 000:081.383 JLINK_OpenEx(...)
T3A58 000:087.851   Firmware: J-Link ARM-OB STM32 compiled Aug 22 2012 19:52:04
T3A58 000:090.824   Firmware: J-Link ARM-OB STM32 compiled Aug 22 2012 19:52:04
T3A58 000:108.655   Hardware: V7.00
T3A58 000:108.668   S/N: 20090928
T3A58 000:108.675   OEM: SEGGER
T3A58 000:108.682   Feature(s): RDI,FlashDL,FlashBP,JFlash,GDB
T3A58 000:117.831   TELNET listener socket opened on port 19021
T3A58 000:117.906   WEBSRV WEBSRV_Init(): Starting webserver thread(s)
T3A58 000:118.026   WEBSRV Webserver running on local port 19080
T3A58 000:124.350 - 42.979ms returns "O.K."
T3A58 000:124.378 JLINK_GetEmuCaps()
T3A58 000:124.384 - 0.008ms returns 0x88EA5833
T3A58 000:124.392 JLINK_TIF_GetAvailable(...)
T3A58 000:126.657 - 2.273ms
T3A58 000:126.673 JLINK_SetErrorOutHandler(...)
T3A58 000:126.679 - 0.007ms
T3A58 000:126.696 JLINK_ExecCommand("ProjectFile = "C:\Users\robank\Desktop\STM32F401CCU6-oled-final (3)\STM32F401CCU6-oled-final (2)\STM32F401CCU6-oled-final\STM32F401CCU6-°´¼üÖÐ¶ÏÃðµÆ\STM32F401CCU6-°´¼üÖÐ¶ÏÃðµÆ\Project\RVMDK£¨uv5£©\JLinkSettings.ini"", ...). 
T3A58 000:134.767 - 8.078ms returns 0x00
T3A58 000:139.479 JLINK_ExecCommand("Device = STM32F401CCUx", ...). 
T3A58 000:142.236   Device "STM32F401CC" selected.
T3A58 000:142.526 - 3.036ms returns 0x00
T3A58 000:142.536 JLINK_ExecCommand("DisableConnectionTimeout", ...). 
T3A58 000:142.544 - 0.003ms returns 0x01
T3A58 000:142.550 JLINK_GetHardwareVersion()
T3A58 000:142.555 - 0.007ms returns 70000
T3A58 000:142.561 JLINK_GetDLLVersion()
T3A58 000:142.567 - 0.008ms returns 75801
T3A58 000:142.573 JLINK_GetOEMString(...)
T3A58 000:142.579 JLINK_GetFirmwareString(...)
T3A58 000:142.584 - 0.007ms
T3A58 000:150.169 JLINK_GetDLLVersion()
T3A58 000:150.184 - 0.018ms returns 75801
T3A58 000:150.191 JLINK_GetCompileDateTime()
T3A58 000:150.196 - 0.007ms
T3A58 000:152.671 JLINK_GetFirmwareString(...)
T3A58 000:152.681 - 0.012ms
T3A58 000:154.692 JLINK_GetHardwareVersion()
T3A58 000:154.701 - 0.011ms returns 70000
T3A58 000:157.408 JLINK_GetSN()
T3A58 000:157.417 - 0.011ms returns 20090928
T3A58 000:159.384 JLINK_GetOEMString(...)
T3A58 000:163.333 JLINK_TIF_Select(JLINKARM_TIF_SWD)
T3A58 000:171.610 - 8.286ms returns 0x00
T3A58 000:171.625 JLINK_HasError()
T3A58 000:171.635 JLINK_SetSpeed(5000)
T3A58 000:174.607 - 2.975ms
T3A58 000:174.615 JLINK_GetId()
T3A58 000:179.756   InitTarget() start
T3A58 000:179.768    J-Link Script File: Executing InitTarget()
T3A58 000:404.219   InitTarget() end
T3A58 000:412.001   Found SW-DP with ID 0x2BA01477
T3A58 000:465.734   Old FW that does not support reading DPIDR via DAP jobs
T3A58 000:521.829   DPv0 detected
T3A58 000:523.798   Scanning AP map to find all available APs
T3A58 000:561.776   AP[1]: Stopped AP scan as end of AP map has been reached
T3A58 000:563.782   AP[0]: AHB-AP (IDR: 0x24770011)
T3A58 000:565.889   Iterating through AP map to find AHB-AP to use
T3A58 000:627.815   AP[0]: Core found
T3A58 000:629.813   AP[0]: AHB-AP ROM base: 0xE00FF000
T3A58 000:661.917   CPUID register: 0x410FC241. Implementer code: 0x41 (ARM)
T3A58 000:669.984   Found Cortex-M4 r0p1, Little endian.
T3A58 000:778.754   -- Max. mem block: 0x00002C18
T3A58 000:781.739   CPU_ReadMem(4 bytes @ 0xE000EDF0)
T3A58 000:785.015   CPU_ReadMem(4 bytes @ 0xE0002000)
T3A58 000:792.465   FPUnit: 6 code (BP) slots and 2 literal slots
T3A58 000:792.503   CPU_ReadMem(4 bytes @ 0xE000EDFC)
T3A58 000:795.012   CPU_WriteMem(4 bytes @ 0xE000EDFC)
T3A58 000:798.059   CPU_ReadMem(4 bytes @ 0xE0001000)
T3A58 000:801.019   CPU_WriteMem(4 bytes @ 0xE0001000)
T3A58 000:804.029   CPU_ReadMem(4 bytes @ 0xE000ED88)
T3A58 000:806.973   CPU_WriteMem(4 bytes @ 0xE000ED88)
T3A58 000:810.006   CPU_ReadMem(4 bytes @ 0xE000ED88)
T3A58 000:812.976   CPU_WriteMem(4 bytes @ 0xE000ED88)
T3A58 000:818.220   CoreSight components:
T3A58 000:820.472   ROMTbl[0] @ E00FF000
T3A58 000:820.487   CPU_ReadMem(64 bytes @ 0xE00FF000)
T3A58 000:823.604   CPU_ReadMem(32 bytes @ 0xE000EFE0)
T3A58 000:831.173   [0][0]: E000E000 CID B105E00D PID 000BB00C SCS-M7
T3A58 000:831.197   CPU_ReadMem(32 bytes @ 0xE0001FE0)
T3A58 000:836.835   [0][1]: E0001000 CID B105E00D PID 003BB002 DWT
T3A58 000:836.859   CPU_ReadMem(32 bytes @ 0xE0002FE0)
T3A58 000:842.651   [0][2]: E0002000 CID B105E00D PID 002BB003 FPB
T3A58 000:842.670   CPU_ReadMem(32 bytes @ 0xE0000FE0)
T3A58 000:847.353   [0][3]: E0000000 CID B105E00D PID 003BB001 ITM
T3A58 000:847.373   CPU_ReadMem(32 bytes @ 0xE0040FE0)
T3A58 000:852.327   [0][4]: E0040000 CID B105900D PID 000BB9A1 TPIU
T3A58 000:852.341   CPU_ReadMem(32 bytes @ 0xE0041FE0)
T3A58 000:857.682   [0][5]: E0041000 CID B105900D PID 000BB925 ETM
T3A58 000:863.770 - 689.163ms returns 0x2BA01477
T3A58 000:863.788 JLINK_GetDLLVersion()
T3A58 000:863.793 - 0.007ms returns 75801
T3A58 000:863.800 JLINK_CORE_GetFound()
T3A58 000:863.805 - 0.007ms returns 0xE0000FF
T3A58 000:863.812 JLINK_GetDebugInfo(0x100 = JLINKARM_ROM_TABLE_ADDR_INDEX)
T3A58 000:863.820   Value=0xE00FF000
T3A58 000:863.827 - 0.017ms returns 0
T3A58 000:865.900 JLINK_GetDebugInfo(0x100 = JLINKARM_ROM_TABLE_ADDR_INDEX)
T3A58 000:865.910   Value=0xE00FF000
T3A58 000:865.917 - 0.019ms returns 0
T3A58 000:865.922 JLINK_GetDebugInfo(0x101 = JLINKARM_DEBUG_INFO_ETM_ADDR_INDEX)
T3A58 000:865.927   Value=0xE0041000
T3A58 000:865.934 - 0.013ms returns 0
T3A58 000:865.942 JLINK_ReadMemEx(0xE0041FD0, 0x20 Bytes, Flags = 0x02000004)
T3A58 000:865.961   CPU_ReadMem(32 bytes @ 0xE0041FD0)
T3A58 000:869.320   Data:  04 00 00 00 00 00 00 00 00 00 00 00 00 00 00 00 ...
T3A58 000:869.339 - 3.399ms returns 32 (0x20)
T3A58 000:869.350 JLINK_GetDebugInfo(0x102 = JLINKARM_DEBUG_INFO_MTB_ADDR_INDEX)
T3A58 000:869.356   Value=0x00000000
T3A58 000:869.363 - 0.014ms returns 0
T3A58 000:869.368 JLINK_GetDebugInfo(0x103 = JLINKARM_DEBUG_INFO_TPIU_ADDR_INDEX)
T3A58 000:869.373   Value=0xE0040000
T3A58 000:869.380 - 0.013ms returns 0
T3A58 000:869.385 JLINK_GetDebugInfo(0x104 = JLINKARM_DEBUG_INFO_ITM_ADDR_INDEX)
T3A58 000:869.390   Value=0xE0000000
T3A58 000:869.396 - 0.013ms returns 0
T3A58 000:869.402 JLINK_GetDebugInfo(0x105 = JLINKARM_DEBUG_INFO_DWT_ADDR_INDEX)
T3A58 000:869.406   Value=0xE0001000
T3A58 000:869.413 - 0.013ms returns 0
T3A58 000:869.418 JLINK_GetDebugInfo(0x106 = JLINKARM_DEBUG_INFO_FPB_ADDR_INDEX)
T3A58 000:869.423   Value=0xE0002000
T3A58 000:869.429 - 0.013ms returns 0
T3A58 000:869.435 JLINK_GetDebugInfo(0x107 = JLINKARM_DEBUG_INFO_NVIC_ADDR_INDEX)
T3A58 000:869.439   Value=0xE000E000
T3A58 000:869.446 - 0.013ms returns 0
T3A58 000:869.451 JLINK_GetDebugInfo(0x10C = JLINKARM_DEBUG_INFO_DBG_ADDR_INDEX)
T3A58 000:869.456   Value=0xE000EDF0
T3A58 000:869.462 - 0.013ms returns 0
T3A58 000:869.468 JLINK_GetDebugInfo(0x01 = Unknown)
T3A58 000:869.473   Value=0x00000001
T3A58 000:869.479 - 0.013ms returns 0
T3A58 000:869.484 JLINK_ReadMemU32(0xE000ED00, 0x1 Items)
T3A58 000:869.498   CPU_ReadMem(4 bytes @ 0xE000ED00)
T3A58 000:871.976   Data:  41 C2 0F 41
T3A58 000:871.987   Debug reg: CPUID
T3A58 000:871.994 - 2.512ms returns 1 (0x1)
T3A58 000:872.002 JLINK_GetDebugInfo(0x10F = JLINKARM_DEBUG_INFO_HAS_CORTEX_M_SECURITY_EXT_INDEX)
T3A58 000:872.007   Value=0x00000000
T3A58 000:872.014 - 0.014ms returns 0
T3A58 000:872.021 JLINK_HasError()
T3A58 000:872.027 JLINK_SetResetType(JLINKARM_CM3_RESET_TYPE_NORMAL)
T3A58 000:872.032 - 0.007ms returns JLINKARM_CM3_RESET_TYPE_NORMAL
T3A58 000:872.038 JLINK_Reset()
T3A58 000:872.053   CPU is running
T3A58 000:872.062   CPU_WriteMem(4 bytes @ 0xE000EDF0)
T3A58 000:875.006   CPU is running
T3A58 000:875.023   CPU_WriteMem(4 bytes @ 0xE000EDFC)
T3A58 000:880.553   Reset: Halt core after reset via DEMCR.VC_CORERESET.
T3A58 000:887.949   Reset: Reset device via AIRCR.SYSRESETREQ.
T3A58 000:887.962   CPU is running
T3A58 000:887.977   CPU_WriteMem(4 bytes @ 0xE000ED0C)
T3A58 000:949.791   CPU_ReadMem(4 bytes @ 0xE000EDF0)
T3A58 000:953.015   CPU_ReadMem(4 bytes @ 0xE000EDF0)
T3A58 000:955.983   CPU is running
T3A58 000:955.996   CPU_WriteMem(4 bytes @ 0xE000EDF0)
T3A58 000:959.029   CPU is running
T3A58 000:959.041   CPU_WriteMem(4 bytes @ 0xE000EDFC)
T3A58 000:967.733   CPU_ReadMem(4 bytes @ 0xE000EDF0)
T3A58 000:979.327   CPU_WriteMem(4 bytes @ 0xE0002000)
T3A58 000:982.015   CPU_ReadMem(4 bytes @ 0xE000EDFC)
T3A58 000:984.989   CPU_ReadMem(4 bytes @ 0xE0001000)
T3A58 000:988.001 - 115.976ms
T3A58 000:988.027 JLINK_Halt()
T3A58 000:988.033 - 0.008ms returns 0x00
T3A58 000:988.042 JLINK_ReadMemU32(0xE000EDF0, 0x1 Items)
T3A58 000:988.057   CPU_ReadMem(4 bytes @ 0xE000EDF0)
T3A58 000:990.988   Data:  03 00 03 00
T3A58 000:991.001   Debug reg: DHCSR
T3A58 000:991.008 - 2.969ms returns 1 (0x1)
T3A58 000:991.049 JLINK_WriteU32_64(0xE000EDF0, 0xA05F0003)
T3A58 000:991.055   Debug reg: DHCSR
T3A58 000:991.223   CPU_WriteMem(4 bytes @ 0xE000EDF0)
T3A58 000:994.030 - 2.991ms returns 0 (0x00000000)
T3A58 000:994.049 JLINK_WriteU32_64(0xE000EDFC, 0x01000000)
T3A58 000:994.056   Debug reg: DEMCR
T3A58 000:994.071   CPU_WriteMem(4 bytes @ 0xE000EDFC)
T3A58 000:997.015 - 2.974ms returns 0 (0x00000000)
T3A58 001:007.187 JLINK_GetHWStatus(...)
T3A58 001:009.739 - 2.558ms returns 0
T3A58 001:016.154 JLINK_GetNumBPUnits(Type = 0xFFFFFF00)
T3A58 001:016.165 - 0.013ms returns 0x06
T3A58 001:016.171 JLINK_GetNumBPUnits(Type = 0xF0)
T3A58 001:016.176 - 0.007ms returns 0x2000
T3A58 001:016.181 JLINK_GetNumWPUnits()
T3A58 001:016.186 - 0.006ms returns 4
T3A58 001:024.077 JLINK_GetSpeed()
T3A58 001:024.088 - 0.013ms returns 4000
T3A58 001:028.040 JLINK_ReadMemU32(0xE000E004, 0x1 Items)
T3A58 001:028.060   CPU_ReadMem(4 bytes @ 0xE000E004)
T3A58 001:030.992   Data:  02 00 00 00
T3A58 001:031.004 - 2.966ms returns 1 (0x1)
T3A58 001:031.012 JLINK_ReadMemU32(0xE000E004, 0x1 Items)
T3A58 001:031.021   CPU_ReadMem(4 bytes @ 0xE000E004)
T3A58 001:033.995   Data:  02 00 00 00
T3A58 001:034.006 - 2.996ms returns 1 (0x1)
T3A58 001:034.013 JLINK_WriteMemEx(0xE0001000, 0x0000001C Bytes, Flags = 0x02000004)
T3A58 001:034.018   Data:  01 00 00 00 00 00 00 00 00 00 00 00 00 00 00 00 ...
T3A58 001:034.032   CPU_WriteMem(28 bytes @ 0xE0001000)
T3A58 001:037.318 - 3.311ms returns 0x1C
T3A58 001:037.333 JLINK_Halt()
T3A58 001:037.338 - 0.007ms returns 0x00
T3A58 001:037.344 JLINK_IsHalted()
T3A58 001:037.349 - 0.007ms returns TRUE
T3A58 001:039.207 JLINK_WriteMem(0x20000000, 0x188 Bytes, ...)
T3A58 001:039.215   Data:  00 BE 0A E0 0D 78 2D 06 68 40 08 24 40 00 00 D3 ...
T3A58 001:039.381   CPU_WriteMem(392 bytes @ 0x20000000)
T3A58 001:046.598 - 7.397ms returns 0x188
T3A58 001:046.633 JLINK_HasError()
T3A58 001:046.641 JLINK_WriteReg(R0, 0x08000000)
T3A58 001:046.652 - 0.014ms returns 0
T3A58 001:046.658 JLINK_WriteReg(R1, 0x017D7840)
T3A58 001:046.664 - 0.007ms returns 0
T3A58 001:046.669 JLINK_WriteReg(R2, 0x00000001)
T3A58 001:046.674 - 0.007ms returns 0
T3A58 001:046.680 JLINK_WriteReg(R3, 0x00000000)
T3A58 001:046.685 - 0.007ms returns 0
T3A58 001:046.690 JLINK_WriteReg(R4, 0x00000000)
T3A58 001:046.695 - 0.007ms returns 0
T3A58 001:046.701 JLINK_WriteReg(R5, 0x00000000)
T3A58 001:046.706 - 0.007ms returns 0
T3A58 001:046.711 JLINK_WriteReg(R6, 0x00000000)
T3A58 001:046.716 - 0.007ms returns 0
T3A58 001:046.722 JLINK_WriteReg(R7, 0x00000000)
T3A58 001:046.727 - 0.007ms returns 0
T3A58 001:046.732 JLINK_WriteReg(R8, 0x00000000)
T3A58 001:046.740 - 0.010ms returns 0
T3A58 001:046.745 JLINK_WriteReg(R9, 0x20000184)
T3A58 001:046.750 - 0.007ms returns 0
T3A58 001:046.756 JLINK_WriteReg(R10, 0x00000000)
T3A58 001:046.761 - 0.007ms returns 0
T3A58 001:046.766 JLINK_WriteReg(R11, 0x00000000)
T3A58 001:046.773 - 0.008ms returns 0
T3A58 001:046.778 JLINK_WriteReg(R12, 0x00000000)
T3A58 001:046.783 - 0.007ms returns 0
T3A58 001:046.789 JLINK_WriteReg(R13 (SP), 0x20001000)
T3A58 001:046.798 - 0.012ms returns 0
T3A58 001:046.804 JLINK_WriteReg(R14, 0x20000001)
T3A58 001:046.810 - 0.007ms returns 0
T3A58 001:046.815 JLINK_WriteReg(R15 (PC), 0x2000005E)
T3A58 001:046.820 - 0.007ms returns 0
T3A58 001:046.826 JLINK_WriteReg(XPSR, 0x01000000)
T3A58 001:046.831 - 0.007ms returns 0
T3A58 001:046.836 JLINK_WriteReg(MSP, 0x20001000)
T3A58 001:046.841 - 0.007ms returns 0
T3A58 001:046.847 JLINK_WriteReg(PSP, 0x20001000)
T3A58 001:046.852 - 0.007ms returns 0
T3A58 001:046.857 JLINK_WriteReg(CFBP, 0x00000000)
T3A58 001:046.862 - 0.007ms returns 0
T3A58 001:046.868 JLINK_SetBPEx(Addr = 0x20000000, Type = 0xFFFFFFF2)
T3A58 001:046.878   CPU_ReadMem(2 bytes @ 0x20000000)
T3A58 001:050.020 - 3.165ms returns 0x00000001
T3A58 001:050.042 JLINK_Go()
T3A58 001:050.054   CPU_WriteMem(2 bytes @ 0x20000000)
T3A58 001:053.036   CPU_ReadMem(4 bytes @ 0xE0001000)
T3A58 001:056.006   CPU_WriteMem(4 bytes @ 0xE0002008)
T3A58 001:056.019   CPU_WriteMem(4 bytes @ 0xE000200C)
T3A58 001:056.026   CPU_WriteMem(4 bytes @ 0xE0002010)
T3A58 001:056.034   CPU_WriteMem(4 bytes @ 0xE0002014)
T3A58 001:056.041   CPU_WriteMem(4 bytes @ 0xE0002018)
T3A58 001:056.048   CPU_WriteMem(4 bytes @ 0xE000201C)
T3A58 001:060.845   CPU_WriteMem(4 bytes @ 0xE0001004)
T3A58 001:072.146 - 22.111ms
T3A58 001:072.162 JLINK_IsHalted()
T3A58 001:080.341   CPU_ReadMem(2 bytes @ 0x20000000)
T3A58 001:083.007 - 10.856ms returns TRUE
T3A58 001:083.030 JLINK_ReadReg(R15 (PC))
T3A58 001:083.040 - 0.012ms returns 0x20000000
T3A58 001:083.048 JLINK_ClrBPEx(BPHandle = 0x00000001)
T3A58 001:083.053 - 0.008ms returns 0x00
T3A58 001:083.060 JLINK_ReadReg(R0)
T3A58 001:083.066 - 0.007ms returns 0x00000000
T3A58 001:083.394 JLINK_HasError()
T3A58 001:083.404 JLINK_WriteReg(R0, 0x08000000)
T3A58 001:083.411 - 0.009ms returns 0
T3A58 001:083.417 JLINK_WriteReg(R1, 0x00004000)
T3A58 001:083.422 - 0.007ms returns 0
T3A58 001:083.427 JLINK_WriteReg(R2, 0x000000FF)
T3A58 001:083.432 - 0.007ms returns 0
T3A58 001:083.438 JLINK_WriteReg(R3, 0x00000000)
T3A58 001:083.443 - 0.007ms returns 0
T3A58 001:083.449 JLINK_WriteReg(R4, 0x00000000)
T3A58 001:083.454 - 0.007ms returns 0
T3A58 001:083.459 JLINK_WriteReg(R5, 0x00000000)
T3A58 001:083.464 - 0.007ms returns 0
T3A58 001:083.470 JLINK_WriteReg(R6, 0x00000000)
T3A58 001:083.475 - 0.007ms returns 0
T3A58 001:083.480 JLINK_WriteReg(R7, 0x00000000)
T3A58 001:083.485 - 0.007ms returns 0
T3A58 001:083.491 JLINK_WriteReg(R8, 0x00000000)
T3A58 001:083.496 - 0.007ms returns 0
T3A58 001:083.501 JLINK_WriteReg(R9, 0x20000184)
T3A58 001:083.506 - 0.007ms returns 0
T3A58 001:083.512 JLINK_WriteReg(R10, 0x00000000)
T3A58 001:083.517 - 0.007ms returns 0
T3A58 001:083.522 JLINK_WriteReg(R11, 0x00000000)
T3A58 001:083.527 - 0.007ms returns 0
T3A58 001:083.533 JLINK_WriteReg(R12, 0x00000000)
T3A58 001:083.538 - 0.007ms returns 0
T3A58 001:083.543 JLINK_WriteReg(R13 (SP), 0x20001000)
T3A58 001:083.549 - 0.007ms returns 0
T3A58 001:083.554 JLINK_WriteReg(R14, 0x20000001)
T3A58 001:083.559 - 0.007ms returns 0
T3A58 001:083.565 JLINK_WriteReg(R15 (PC), 0x20000020)
T3A58 001:083.570 - 0.007ms returns 0
T3A58 001:083.575 JLINK_WriteReg(XPSR, 0x01000000)
T3A58 001:083.581 - 0.007ms returns 0
T3A58 001:083.586 JLINK_WriteReg(MSP, 0x20001000)
T3A58 001:083.591 - 0.007ms returns 0
T3A58 001:083.597 JLINK_WriteReg(PSP, 0x20001000)
T3A58 001:083.602 - 0.007ms returns 0
T3A58 001:083.607 JLINK_WriteReg(CFBP, 0x00000000)
T3A58 001:083.612 - 0.007ms returns 0
T3A58 001:083.618 JLINK_SetBPEx(Addr = 0x20000000, Type = 0xFFFFFFF2)
T3A58 001:083.624 - 0.008ms returns 0x00000002
T3A58 001:083.630 JLINK_Go()
T3A58 001:083.643   CPU_ReadMem(4 bytes @ 0xE0001000)
T3A58 001:095.150 - 11.529ms
T3A58 001:095.166 JLINK_IsHalted()
T3A58 001:103.336   CPU_ReadMem(2 bytes @ 0x20000000)
T3A58 001:106.009 - 10.856ms returns TRUE
T3A58 001:106.031 JLINK_ReadReg(R15 (PC))
T3A58 001:106.040 - 0.012ms returns 0x20000000
T3A58 001:106.046 JLINK_ClrBPEx(BPHandle = 0x00000002)
T3A58 001:106.052 - 0.053ms returns 0x00
T3A58 001:106.106 JLINK_ReadReg(R0)
T3A58 001:106.112 - 0.007ms returns 0x00000001
T3A58 001:106.118 JLINK_HasError()
T3A58 001:106.124 JLINK_WriteReg(R0, 0x08000000)
T3A58 001:106.130 - 0.008ms returns 0
T3A58 001:106.135 JLINK_WriteReg(R1, 0x00004000)
T3A58 001:106.141 - 0.007ms returns 0
T3A58 001:106.146 JLINK_WriteReg(R2, 0x000000FF)
T3A58 001:106.151 - 0.007ms returns 0
T3A58 001:106.156 JLINK_WriteReg(R3, 0x00000000)
T3A58 001:106.161 - 0.007ms returns 0
T3A58 001:106.167 JLINK_WriteReg(R4, 0x00000000)
T3A58 001:106.172 - 0.007ms returns 0
T3A58 001:106.177 JLINK_WriteReg(R5, 0x00000000)
T3A58 001:106.182 - 0.007ms returns 0
T3A58 001:106.188 JLINK_WriteReg(R6, 0x00000000)
T3A58 001:106.193 - 0.007ms returns 0
T3A58 001:106.198 JLINK_WriteReg(R7, 0x00000000)
T3A58 001:106.203 - 0.007ms returns 0
T3A58 001:106.209 JLINK_WriteReg(R8, 0x00000000)
T3A58 001:106.214 - 0.007ms returns 0
T3A58 001:106.220 JLINK_WriteReg(R9, 0x20000184)
T3A58 001:106.225 - 0.007ms returns 0
T3A58 001:106.230 JLINK_WriteReg(R10, 0x00000000)
T3A58 001:106.235 - 0.007ms returns 0
T3A58 001:106.241 JLINK_WriteReg(R11, 0x00000000)
T3A58 001:106.246 - 0.007ms returns 0
T3A58 001:106.251 JLINK_WriteReg(R12, 0x00000000)
T3A58 001:106.256 - 0.007ms returns 0
T3A58 001:106.262 JLINK_WriteReg(R13 (SP), 0x20001000)
T3A58 001:106.267 - 0.007ms returns 0
T3A58 001:106.273 JLINK_WriteReg(R14, 0x20000001)
T3A58 001:106.278 - 0.007ms returns 0
T3A58 001:106.283 JLINK_WriteReg(R15 (PC), 0x200000C6)
T3A58 001:106.288 - 0.007ms returns 0
T3A58 001:106.294 JLINK_WriteReg(XPSR, 0x01000000)
T3A58 001:106.299 - 0.007ms returns 0
T3A58 001:106.304 JLINK_WriteReg(MSP, 0x20001000)
T3A58 001:106.309 - 0.007ms returns 0
T3A58 001:106.315 JLINK_WriteReg(PSP, 0x20001000)
T3A58 001:106.320 - 0.007ms returns 0
T3A58 001:106.325 JLINK_WriteReg(CFBP, 0x00000000)
T3A58 001:106.330 - 0.007ms returns 0
T3A58 001:106.336 JLINK_SetBPEx(Addr = 0x20000000, Type = 0xFFFFFFF2)
T3A58 001:106.342 - 0.008ms returns 0x00000003
T3A58 001:106.348 JLINK_Go()
T3A58 001:106.361   CPU_ReadMem(4 bytes @ 0xE0001000)
T3A58 001:117.148 - 10.809ms
T3A58 001:117.164 JLINK_IsHalted()
T3A58 001:119.974 - 2.816ms returns FALSE
T3A58 001:119.987 JLINK_HasError()
T3A58 001:132.738 JLINK_IsHalted()
T3A58 001:136.000 - 3.270ms returns FALSE
T3A58 001:136.014 JLINK_HasError()
T3A58 001:137.752 JLINK_IsHalted()
T3A58 001:141.001 - 3.255ms returns FALSE
T3A58 001:141.013 JLINK_HasError()
T3A58 001:142.920 JLINK_IsHalted()
T3A58 001:145.999 - 3.083ms returns FALSE
T3A58 001:146.009 JLINK_HasError()
T3A58 001:149.035 JLINK_IsHalted()
T3A58 001:152.000 - 2.972ms returns FALSE
T3A58 001:152.014 JLINK_HasError()
T3A58 001:153.744 JLINK_IsHalted()
T3A58 001:157.003 - 3.266ms returns FALSE
T3A58 001:157.016 JLINK_HasError()
T3A58 001:159.230 JLINK_IsHalted()
T3A58 001:162.000 - 2.775ms returns FALSE
T3A58 001:162.009 JLINK_HasError()
T3A58 001:163.710 JLINK_IsHalted()
T3A58 001:165.974 - 2.268ms returns FALSE
T3A58 001:165.982 JLINK_HasError()
T3A58 001:167.974 JLINK_IsHalted()
T3A58 001:171.001 - 3.033ms returns FALSE
T3A58 001:171.012 JLINK_HasError()
T3A58 001:172.997 JLINK_IsHalted()
T3A58 001:175.975 - 2.982ms returns FALSE
T3A58 001:175.985 JLINK_HasError()
T3A58 001:177.697 JLINK_IsHalted()
T3A58 001:179.982 - 2.291ms returns FALSE
T3A58 001:179.994 JLINK_HasError()
T3A58 001:181.973 JLINK_IsHalted()
T3A58 001:185.005 - 3.038ms returns FALSE
T3A58 001:185.017 JLINK_HasError()
T3A58 001:186.998 JLINK_IsHalted()
T3A58 001:190.004 - 3.012ms returns FALSE
T3A58 001:190.015 JLINK_HasError()
T3A58 001:191.998 JLINK_IsHalted()
T3A58 001:194.978 - 2.984ms returns FALSE
T3A58 001:194.986 JLINK_HasError()
T3A58 001:196.973 JLINK_IsHalted()
T3A58 001:199.977 - 3.009ms returns FALSE
T3A58 001:199.986 JLINK_HasError()
T3A58 001:201.664 JLINK_IsHalted()
T3A58 001:204.008 - 2.351ms returns FALSE
T3A58 001:204.023 JLINK_HasError()
T3A58 001:205.617 JLINK_IsHalted()
T3A58 001:208.006 - 2.394ms returns FALSE
T3A58 001:208.021 JLINK_HasError()
T3A58 001:209.080 JLINK_IsHalted()
T3A58 001:212.007 - 2.931ms returns FALSE
T3A58 001:212.017 JLINK_HasError()
T3A58 001:213.564 JLINK_IsHalted()
T3A58 001:216.005 - 2.445ms returns FALSE
T3A58 001:216.013 JLINK_HasError()
T3A58 001:218.002 JLINK_IsHalted()
T3A58 001:221.006 - 3.011ms returns FALSE
T3A58 001:221.019 JLINK_HasError()
T3A58 001:223.565 JLINK_IsHalted()
T3A58 001:226.007 - 2.449ms returns FALSE
T3A58 001:226.020 JLINK_HasError()
T3A58 001:228.003 JLINK_IsHalted()
T3A58 001:231.006 - 3.010ms returns FALSE
T3A58 001:231.020 JLINK_HasError()
T3A58 001:232.603 JLINK_IsHalted()
T3A58 001:235.011 - 2.414ms returns FALSE
T3A58 001:235.022 JLINK_HasError()
T3A58 001:237.002 JLINK_IsHalted()
T3A58 001:240.011 - 3.016ms returns FALSE
T3A58 001:240.024 JLINK_HasError()
T3A58 001:241.560 JLINK_IsHalted()
T3A58 001:243.981 - 2.424ms returns FALSE
T3A58 001:243.988 JLINK_HasError()
T3A58 001:245.541 JLINK_IsHalted()
T3A58 001:248.007 - 2.469ms returns FALSE
T3A58 001:248.015 JLINK_HasError()
T3A58 001:249.522 JLINK_IsHalted()
T3A58 001:252.008 - 2.492ms returns FALSE
T3A58 001:252.019 JLINK_HasError()
T3A58 001:253.513 JLINK_IsHalted()
T3A58 001:256.009 - 2.501ms returns FALSE
T3A58 001:256.020 JLINK_HasError()
T3A58 001:258.008 JLINK_IsHalted()
T3A58 001:261.009 - 3.008ms returns FALSE
T3A58 001:261.022 JLINK_HasError()
T3A58 001:262.525 JLINK_IsHalted()
T3A58 001:265.011 - 2.494ms returns FALSE
T3A58 001:265.027 JLINK_HasError()
T3A58 001:268.488 JLINK_IsHalted()
T3A58 001:271.011 - 2.530ms returns FALSE
T3A58 001:271.024 JLINK_HasError()
T3A58 001:272.529 JLINK_IsHalted()
T3A58 001:275.011 - 2.485ms returns FALSE
T3A58 001:275.019 JLINK_HasError()
T3A58 001:277.004 JLINK_IsHalted()
T3A58 001:280.012 - 3.013ms returns FALSE
T3A58 001:280.023 JLINK_HasError()
T3A58 001:281.506 JLINK_IsHalted()
T3A58 001:284.012 - 2.510ms returns FALSE
T3A58 001:284.022 JLINK_HasError()
T3A58 001:285.488 JLINK_IsHalted()
T3A58 001:288.013 - 2.532ms returns FALSE
T3A58 001:288.026 JLINK_HasError()
T3A58 001:289.468 JLINK_IsHalted()
T3A58 001:292.012 - 2.547ms returns FALSE
T3A58 001:292.020 JLINK_HasError()
T3A58 001:293.433 JLINK_IsHalted()
T3A58 001:296.012 - 2.582ms returns FALSE
T3A58 001:296.020 JLINK_HasError()
T3A58 001:297.457 JLINK_IsHalted()
T3A58 001:300.017 - 2.567ms returns FALSE
T3A58 001:300.030 JLINK_HasError()
T3A58 001:302.749 JLINK_IsHalted()
T3A58 001:305.986 - 3.241ms returns FALSE
T3A58 001:305.994 JLINK_HasError()
T3A58 001:307.457 JLINK_IsHalted()
T3A58 001:310.015 - 2.564ms returns FALSE
T3A58 001:310.027 JLINK_HasError()
T3A58 001:312.008 JLINK_IsHalted()
T3A58 001:315.016 - 3.013ms returns FALSE
T3A58 001:315.027 JLINK_HasError()
T3A58 001:317.009 JLINK_IsHalted()
T3A58 001:320.015 - 3.012ms returns FALSE
T3A58 001:320.026 JLINK_HasError()
T3A58 001:322.010 JLINK_IsHalted()
T3A58 001:324.990 - 2.984ms returns FALSE
T3A58 001:324.998 JLINK_HasError()
T3A58 001:326.983 JLINK_IsHalted()
T3A58 001:330.017 - 3.040ms returns FALSE
T3A58 001:330.028 JLINK_HasError()
T3A58 001:332.010 JLINK_IsHalted()
T3A58 001:334.989 - 2.983ms returns FALSE
T3A58 001:334.997 JLINK_HasError()
T3A58 001:336.314 JLINK_IsHalted()
T3A58 001:339.017 - 2.708ms returns FALSE
T3A58 001:339.028 JLINK_HasError()
T3A58 001:340.317 JLINK_IsHalted()
T3A58 001:343.021 - 2.711ms returns FALSE
T3A58 001:343.034 JLINK_HasError()
T3A58 001:344.283 JLINK_IsHalted()
T3A58 001:347.017 - 2.738ms returns FALSE
T3A58 001:347.025 JLINK_HasError()
T3A58 001:348.244 JLINK_IsHalted()
T3A58 001:351.019 - 2.781ms returns FALSE
T3A58 001:351.031 JLINK_HasError()
T3A58 001:353.011 JLINK_IsHalted()
T3A58 001:356.019 - 3.013ms returns FALSE
T3A58 001:356.029 JLINK_HasError()
T3A58 001:358.017 JLINK_IsHalted()
T3A58 001:361.019 - 3.009ms returns FALSE
T3A58 001:361.032 JLINK_HasError()
T3A58 001:364.254 JLINK_IsHalted()
T3A58 001:366.992 - 2.742ms returns FALSE
T3A58 001:367.000 JLINK_HasError()
T3A58 001:368.217 JLINK_IsHalted()
T3A58 001:371.021 - 2.811ms returns FALSE
T3A58 001:371.034 JLINK_HasError()
T3A58 001:373.013 JLINK_IsHalted()
T3A58 001:376.021 - 3.013ms returns FALSE
T3A58 001:376.032 JLINK_HasError()
T3A58 001:378.015 JLINK_IsHalted()
T3A58 001:380.995 - 2.984ms returns FALSE
T3A58 001:381.003 JLINK_HasError()
T3A58 001:382.233 JLINK_IsHalted()
T3A58 001:384.994 - 2.767ms returns FALSE
T3A58 001:385.005 JLINK_HasError()
T3A58 001:386.214 JLINK_IsHalted()
T3A58 001:388.994 - 2.786ms returns FALSE
T3A58 001:389.007 JLINK_HasError()
T3A58 001:390.201 JLINK_IsHalted()
T3A58 001:393.023 - 2.829ms returns FALSE
T3A58 001:393.036 JLINK_HasError()
T3A58 001:394.178 JLINK_IsHalted()
T3A58 001:397.050 - 2.875ms returns FALSE
T3A58 001:397.058 JLINK_HasError()
T3A58 001:398.142 JLINK_IsHalted()
T3A58 001:400.996 - 2.858ms returns FALSE
T3A58 001:401.004 JLINK_HasError()
T3A58 001:402.990 JLINK_IsHalted()
T3A58 001:406.024 - 3.041ms returns FALSE
T3A58 001:406.036 JLINK_HasError()
T3A58 001:407.289 JLINK_IsHalted()
T3A58 001:410.024 - 2.741ms returns FALSE
T3A58 001:410.035 JLINK_HasError()
T3A58 001:412.019 JLINK_IsHalted()
T3A58 001:415.024 - 3.010ms returns FALSE
T3A58 001:415.035 JLINK_HasError()
T3A58 001:417.017 JLINK_IsHalted()
T3A58 001:420.024 - 3.013ms returns FALSE
T3A58 001:420.035 JLINK_HasError()
T3A58 001:422.018 JLINK_IsHalted()
T3A58 001:425.025 - 3.013ms returns FALSE
T3A58 001:425.036 JLINK_HasError()
T3A58 001:426.744 JLINK_IsHalted()
T3A58 001:429.025 - 2.284ms returns FALSE
T3A58 001:429.032 JLINK_HasError()
T3A58 001:430.090 JLINK_IsHalted()
T3A58 001:433.025 - 2.941ms returns FALSE
T3A58 001:433.036 JLINK_HasError()
T3A58 001:434.072 JLINK_IsHalted()
T3A58 001:436.998 - 2.930ms returns FALSE
T3A58 001:437.006 JLINK_HasError()
T3A58 001:438.548 JLINK_IsHalted()
T3A58 001:441.027 - 2.484ms returns FALSE
T3A58 001:441.040 JLINK_HasError()
T3A58 001:443.020 JLINK_IsHalted()
T3A58 001:446.002 - 2.987ms returns FALSE
T3A58 001:446.012 JLINK_HasError()
T3A58 001:447.998 JLINK_IsHalted()
T3A58 001:451.003 - 3.011ms returns FALSE
T3A58 001:451.017 JLINK_HasError()
T3A58 001:452.994 JLINK_IsHalted()
T3A58 001:461.370   CPU_ReadMem(2 bytes @ 0x20000000)
T3A58 001:464.031 - 11.040ms returns TRUE
T3A58 001:464.040 JLINK_ReadReg(R15 (PC))
T3A58 001:464.047 - 0.010ms returns 0x20000000
T3A58 001:464.053 JLINK_ClrBPEx(BPHandle = 0x00000003)
T3A58 001:464.059 - 0.007ms returns 0x00
T3A58 001:464.065 JLINK_ReadReg(R0)
T3A58 001:464.070 - 0.007ms returns 0x00000000
T3A58 001:464.325 JLINK_HasError()
T3A58 001:464.334 JLINK_WriteReg(R0, 0x00000001)
T3A58 001:464.341 - 0.009ms returns 0
T3A58 001:464.347 JLINK_WriteReg(R1, 0x00004000)
T3A58 001:464.352 - 0.007ms returns 0
T3A58 001:464.357 JLINK_WriteReg(R2, 0x000000FF)
T3A58 001:464.363 - 0.007ms returns 0
T3A58 001:464.368 JLINK_WriteReg(R3, 0x00000000)
T3A58 001:464.373 - 0.007ms returns 0
T3A58 001:464.379 JLINK_WriteReg(R4, 0x00000000)
T3A58 001:464.384 - 0.007ms returns 0
T3A58 001:464.389 JLINK_WriteReg(R5, 0x00000000)
T3A58 001:464.394 - 0.007ms returns 0
T3A58 001:464.400 JLINK_WriteReg(R6, 0x00000000)
T3A58 001:464.405 - 0.007ms returns 0
T3A58 001:464.410 JLINK_WriteReg(R7, 0x00000000)
T3A58 001:464.415 - 0.007ms returns 0
T3A58 001:464.421 JLINK_WriteReg(R8, 0x00000000)
T3A58 001:464.426 - 0.007ms returns 0
T3A58 001:464.431 JLINK_WriteReg(R9, 0x20000184)
T3A58 001:464.436 - 0.007ms returns 0
T3A58 001:464.442 JLINK_WriteReg(R10, 0x00000000)
T3A58 001:464.447 - 0.007ms returns 0
T3A58 001:464.452 JLINK_WriteReg(R11, 0x00000000)
T3A58 001:464.458 - 0.007ms returns 0
T3A58 001:464.463 JLINK_WriteReg(R12, 0x00000000)
T3A58 001:464.468 - 0.007ms returns 0
T3A58 001:464.473 JLINK_WriteReg(R13 (SP), 0x20001000)
T3A58 001:464.479 - 0.007ms returns 0
T3A58 001:464.484 JLINK_WriteReg(R14, 0x20000001)
T3A58 001:464.490 - 0.007ms returns 0
T3A58 001:464.495 JLINK_WriteReg(R15 (PC), 0x2000008C)
T3A58 001:464.500 - 0.007ms returns 0
T3A58 001:464.506 JLINK_WriteReg(XPSR, 0x01000000)
T3A58 001:464.514 - 0.013ms returns 0
T3A58 001:464.522 JLINK_WriteReg(MSP, 0x20001000)
T3A58 001:464.528 - 0.007ms returns 0
T3A58 001:464.533 JLINK_WriteReg(PSP, 0x20001000)
T3A58 001:464.538 - 0.007ms returns 0
T3A58 001:464.544 JLINK_WriteReg(CFBP, 0x00000000)
T3A58 001:464.549 - 0.007ms returns 0
T3A58 001:464.554 JLINK_SetBPEx(Addr = 0x20000000, Type = 0xFFFFFFF2)
T3A58 001:464.560 - 0.008ms returns 0x00000004
T3A58 001:464.566 JLINK_Go()
T3A58 001:464.578   CPU_ReadMem(4 bytes @ 0xE0001000)
T3A58 001:475.185 - 10.626ms
T3A58 001:475.199 JLINK_IsHalted()
T3A58 001:483.367   CPU_ReadMem(2 bytes @ 0x20000000)
T3A58 001:486.033 - 10.840ms returns TRUE
T3A58 001:486.045 JLINK_ReadReg(R15 (PC))
T3A58 001:486.053 - 0.009ms returns 0x20000000
T3A58 001:486.059 JLINK_ClrBPEx(BPHandle = 0x00000004)
T3A58 001:486.064 - 0.007ms returns 0x00
T3A58 001:486.071 JLINK_ReadReg(R0)
T3A58 001:486.076 - 0.007ms returns 0x00000000
T3A58 001:540.925 JLINK_WriteMem(0x20000000, 0x188 Bytes, ...)
T3A58 001:540.935   Data:  00 BE 0A E0 0D 78 2D 06 68 40 08 24 40 00 00 D3 ...
T3A58 001:540.952   CPU_WriteMem(392 bytes @ 0x20000000)
T3A58 001:548.638 - 7.720ms returns 0x188
T3A58 001:548.665 JLINK_HasError()
T3A58 001:548.672 JLINK_WriteReg(R0, 0x08000000)
T3A58 001:548.679 - 0.009ms returns 0
T3A58 001:548.685 JLINK_WriteReg(R1, 0x017D7840)
T3A58 001:548.690 - 0.007ms returns 0
T3A58 001:548.695 JLINK_WriteReg(R2, 0x00000002)
T3A58 001:548.701 - 0.007ms returns 0
T3A58 001:548.706 JLINK_WriteReg(R3, 0x00000000)
T3A58 001:548.711 - 0.008ms returns 0
T3A58 001:548.718 JLINK_WriteReg(R4, 0x00000000)
T3A58 001:548.723 - 0.007ms returns 0
T3A58 001:548.729 JLINK_WriteReg(R5, 0x00000000)
T3A58 001:548.734 - 0.007ms returns 0
T3A58 001:548.739 JLINK_WriteReg(R6, 0x00000000)
T3A58 001:548.744 - 0.007ms returns 0
T3A58 001:548.750 JLINK_WriteReg(R7, 0x00000000)
T3A58 001:548.755 - 0.007ms returns 0
T3A58 001:548.760 JLINK_WriteReg(R8, 0x00000000)
T3A58 001:548.765 - 0.007ms returns 0
T3A58 001:548.771 JLINK_WriteReg(R9, 0x20000184)
T3A58 001:548.776 - 0.007ms returns 0
T3A58 001:548.781 JLINK_WriteReg(R10, 0x00000000)
T3A58 001:548.786 - 0.007ms returns 0
T3A58 001:548.792 JLINK_WriteReg(R11, 0x00000000)
T3A58 001:548.797 - 0.007ms returns 0
T3A58 001:548.802 JLINK_WriteReg(R12, 0x00000000)
T3A58 001:548.807 - 0.007ms returns 0
T3A58 001:548.812 JLINK_WriteReg(R13 (SP), 0x20001000)
T3A58 001:548.818 - 0.007ms returns 0
T3A58 001:548.823 JLINK_WriteReg(R14, 0x20000001)
T3A58 001:548.828 - 0.007ms returns 0
T3A58 001:548.834 JLINK_WriteReg(R15 (PC), 0x2000005E)
T3A58 001:548.839 - 0.007ms returns 0
T3A58 001:548.845 JLINK_WriteReg(XPSR, 0x01000000)
T3A58 001:548.850 - 0.007ms returns 0
T3A58 001:548.855 JLINK_WriteReg(MSP, 0x20001000)
T3A58 001:548.860 - 0.007ms returns 0
T3A58 001:548.866 JLINK_WriteReg(PSP, 0x20001000)
T3A58 001:548.871 - 0.007ms returns 0
T3A58 001:548.876 JLINK_WriteReg(CFBP, 0x00000000)
T3A58 001:548.882 - 0.007ms returns 0
T3A58 001:548.887 JLINK_SetBPEx(Addr = 0x20000000, Type = 0xFFFFFFF2)
T3A58 001:548.896   CPU_ReadMem(2 bytes @ 0x20000000)
T3A58 001:552.041 - 3.159ms returns 0x00000005
T3A58 001:552.052 JLINK_Go()
T3A58 001:552.060   CPU_WriteMem(2 bytes @ 0x20000000)
T3A58 001:555.070   CPU_ReadMem(4 bytes @ 0xE0001000)
T3A58 001:566.193 - 14.148ms
T3A58 001:566.208 JLINK_IsHalted()
T3A58 001:574.373   CPU_ReadMem(2 bytes @ 0x20000000)
T3A58 001:577.039 - 10.835ms returns TRUE
T3A58 001:577.049 JLINK_ReadReg(R15 (PC))
T3A58 001:577.056 - 0.009ms returns 0x20000000
T3A58 001:577.062 JLINK_ClrBPEx(BPHandle = 0x00000005)
T3A58 001:577.068 - 0.007ms returns 0x00
T3A58 001:577.074 JLINK_ReadReg(R0)
T3A58 001:577.079 - 0.007ms returns 0x00000000
T3A58 001:577.320 JLINK_WriteMem(0x20000188, 0x278 Bytes, ...)
T3A58 001:577.329   Data:  C8 09 00 20 AD 01 00 08 E3 0C 00 08 41 0A 00 08 ...
T3A58 001:577.342   CPU_WriteMem(632 bytes @ 0x20000188)
T3A58 001:587.341 - 10.029ms returns 0x278
T3A58 001:587.355 JLINK_WriteMem(0x20000400, 0x188 Bytes, ...)
T3A58 001:587.410   Data:  01 D3 01 20 70 BD 00 24 04 E0 64 1C E4 B2 01 20 ...
T3A58 001:587.428   CPU_WriteMem(392 bytes @ 0x20000400)
T3A58 001:594.642 - 7.293ms returns 0x188
T3A58 001:594.654 JLINK_HasError()
T3A58 001:594.661 JLINK_WriteReg(R0, 0x08000000)
T3A58 001:594.668 - 0.009ms returns 0
T3A58 001:594.673 JLINK_WriteReg(R1, 0x00000400)
T3A58 001:594.679 - 0.007ms returns 0
T3A58 001:594.684 JLINK_WriteReg(R2, 0x20000188)
T3A58 001:594.689 - 0.008ms returns 0
T3A58 001:594.696 JLINK_WriteReg(R3, 0x00000000)
T3A58 001:594.701 - 0.010ms returns 0
T3A58 001:594.710 JLINK_WriteReg(R4, 0x00000000)
T3A58 001:594.715 - 0.007ms returns 0
T3A58 001:594.720 JLINK_WriteReg(R5, 0x00000000)
T3A58 001:594.725 - 0.007ms returns 0
T3A58 001:594.731 JLINK_WriteReg(R6, 0x00000000)
T3A58 001:594.736 - 0.007ms returns 0
T3A58 001:594.741 JLINK_WriteReg(R7, 0x00000000)
T3A58 001:594.746 - 0.007ms returns 0
T3A58 001:594.752 JLINK_WriteReg(R8, 0x00000000)
T3A58 001:594.757 - 0.007ms returns 0
T3A58 001:594.762 JLINK_WriteReg(R9, 0x20000184)
T3A58 001:594.767 - 0.007ms returns 0
T3A58 001:594.772 JLINK_WriteReg(R10, 0x00000000)
T3A58 001:594.777 - 0.007ms returns 0
T3A58 001:594.783 JLINK_WriteReg(R11, 0x00000000)
T3A58 001:594.788 - 0.007ms returns 0
T3A58 001:594.793 JLINK_WriteReg(R12, 0x00000000)
T3A58 001:594.798 - 0.007ms returns 0
T3A58 001:594.804 JLINK_WriteReg(R13 (SP), 0x20001000)
T3A58 001:594.809 - 0.007ms returns 0
T3A58 001:594.815 JLINK_WriteReg(R14, 0x20000001)
T3A58 001:594.820 - 0.007ms returns 0
T3A58 001:594.825 JLINK_WriteReg(R15 (PC), 0x20000112)
T3A58 001:594.831 - 0.007ms returns 0
T3A58 001:594.836 JLINK_WriteReg(XPSR, 0x01000000)
T3A58 001:594.841 - 0.007ms returns 0
T3A58 001:594.847 JLINK_WriteReg(MSP, 0x20001000)
T3A58 001:594.852 - 0.007ms returns 0
T3A58 001:594.857 JLINK_WriteReg(PSP, 0x20001000)
T3A58 001:594.862 - 0.007ms returns 0
T3A58 001:594.867 JLINK_WriteReg(CFBP, 0x00000000)
T3A58 001:594.872 - 0.007ms returns 0
T3A58 001:594.878 JLINK_SetBPEx(Addr = 0x20000000, Type = 0xFFFFFFF2)
T3A58 001:594.884 - 0.008ms returns 0x00000006
T3A58 001:594.889 JLINK_Go()
T3A58 001:594.900   CPU_ReadMem(4 bytes @ 0xE0001000)
T3A58 001:606.196 - 11.313ms
T3A58 001:606.209 JLINK_IsHalted()
T3A58 001:609.016 - 2.812ms returns FALSE
T3A58 001:609.028 JLINK_HasError()
T3A58 001:613.678 JLINK_IsHalted()
T3A58 001:621.381   CPU_ReadMem(2 bytes @ 0x20000000)
T3A58 001:624.044 - 10.370ms returns TRUE
T3A58 001:624.053 JLINK_ReadReg(R15 (PC))
T3A58 001:624.060 - 0.009ms returns 0x20000000
T3A58 001:624.065 JLINK_ClrBPEx(BPHandle = 0x00000006)
T3A58 001:624.071 - 0.007ms returns 0x00
T3A58 001:624.076 JLINK_ReadReg(R0)
T3A58 001:624.081 - 0.007ms returns 0x00000000
T3A58 001:624.462 JLINK_WriteMem(0x20000188, 0x278 Bytes, ...)
T3A58 001:624.471   Data:  02 21 2F 20 00 F0 60 FD 11 22 02 21 3F 20 00 F0 ...
T3A58 001:624.482   CPU_WriteMem(632 bytes @ 0x20000188)
T3A58 001:634.453 - 10.007ms returns 0x278
T3A58 001:634.476 JLINK_WriteMem(0x20000400, 0x188 Bytes, ...)
T3A58 001:634.482   Data:  D7 FE 10 23 4F A2 00 21 0F 20 00 F0 CF FC 4C 4D ...
T3A58 001:634.499   CPU_WriteMem(392 bytes @ 0x20000400)
T3A58 001:641.647 - 7.177ms returns 0x188
T3A58 001:641.662 JLINK_HasError()
T3A58 001:641.700 JLINK_WriteReg(R0, 0x08000400)
T3A58 001:641.709 - 0.011ms returns 0
T3A58 001:641.715 JLINK_WriteReg(R1, 0x00000400)
T3A58 001:641.720 - 0.007ms returns 0
T3A58 001:641.726 JLINK_WriteReg(R2, 0x20000188)
T3A58 001:641.731 - 0.007ms returns 0
T3A58 001:641.736 JLINK_WriteReg(R3, 0x00000000)
T3A58 001:641.741 - 0.007ms returns 0
T3A58 001:641.747 JLINK_WriteReg(R4, 0x00000000)
T3A58 001:641.752 - 0.007ms returns 0
T3A58 001:641.757 JLINK_WriteReg(R5, 0x00000000)
T3A58 001:641.762 - 0.007ms returns 0
T3A58 001:641.768 JLINK_WriteReg(R6, 0x00000000)
T3A58 001:641.773 - 0.007ms returns 0
T3A58 001:641.778 JLINK_WriteReg(R7, 0x00000000)
T3A58 001:641.783 - 0.007ms returns 0
T3A58 001:641.789 JLINK_WriteReg(R8, 0x00000000)
T3A58 001:641.794 - 0.007ms returns 0
T3A58 001:641.804 JLINK_WriteReg(R9, 0x20000184)
T3A58 001:641.812 - 0.010ms returns 0
T3A58 001:641.818 JLINK_WriteReg(R10, 0x00000000)
T3A58 001:641.823 - 0.007ms returns 0
T3A58 001:641.828 JLINK_WriteReg(R11, 0x00000000)
T3A58 001:641.833 - 0.007ms returns 0
T3A58 001:641.839 JLINK_WriteReg(R12, 0x00000000)
T3A58 001:641.844 - 0.007ms returns 0
T3A58 001:641.849 JLINK_WriteReg(R13 (SP), 0x20001000)
T3A58 001:641.855 - 0.008ms returns 0
T3A58 001:641.860 JLINK_WriteReg(R14, 0x20000001)
T3A58 001:641.865 - 0.007ms returns 0
T3A58 001:641.871 JLINK_WriteReg(R15 (PC), 0x20000112)
T3A58 001:641.876 - 0.007ms returns 0
T3A58 001:641.881 JLINK_WriteReg(XPSR, 0x01000000)
T3A58 001:641.887 - 0.007ms returns 0
T3A58 001:641.892 JLINK_WriteReg(MSP, 0x20001000)
T3A58 001:641.897 - 0.007ms returns 0
T3A58 001:641.903 JLINK_WriteReg(PSP, 0x20001000)
T3A58 001:641.908 - 0.007ms returns 0
T3A58 001:641.913 JLINK_WriteReg(CFBP, 0x00000000)
T3A58 001:641.918 - 0.007ms returns 0
T3A58 001:641.924 JLINK_SetBPEx(Addr = 0x20000000, Type = 0xFFFFFFF2)
T3A58 001:641.930 - 0.008ms returns 0x00000007
T3A58 001:641.936 JLINK_Go()
T3A58 001:641.948   CPU_ReadMem(4 bytes @ 0xE0001000)
T3A58 001:653.197 - 11.272ms
T3A58 001:653.213 JLINK_IsHalted()
T3A58 001:656.030 - 2.822ms returns FALSE
T3A58 001:656.041 JLINK_HasError()
T3A58 001:658.028 JLINK_IsHalted()
T3A58 001:666.380   CPU_ReadMem(2 bytes @ 0x20000000)
T3A58 001:669.048 - 11.025ms returns TRUE
T3A58 001:669.060 JLINK_ReadReg(R15 (PC))
T3A58 001:669.067 - 0.009ms returns 0x20000000
T3A58 001:669.073 JLINK_ClrBPEx(BPHandle = 0x00000007)
T3A58 001:669.079 - 0.007ms returns 0x00
T3A58 001:669.086 JLINK_ReadReg(R0)
T3A58 001:669.091 - 0.007ms returns 0x00000000
T3A58 001:669.467 JLINK_WriteMem(0x20000188, 0x278 Bytes, ...)
T3A58 001:669.475   Data:  04 20 00 F0 8F B8 00 00 08 02 40 42 1D 00 00 20 ...
T3A58 001:669.488   CPU_WriteMem(632 bytes @ 0x20000188)
T3A58 001:679.350 - 9.890ms returns 0x278
T3A58 001:679.363 JLINK_WriteMem(0x20000400, 0x188 Bytes, ...)
T3A58 001:679.368   Data:  1C BD 00 00 00 04 02 40 A0 82 40 42 2D E9 F0 41 ...
T3A58 001:679.380   CPU_WriteMem(392 bytes @ 0x20000400)
T3A58 001:686.702 - 7.344ms returns 0x188
T3A58 001:686.712 JLINK_HasError()
T3A58 001:686.719 JLINK_WriteReg(R0, 0x08000800)
T3A58 001:686.726 - 0.009ms returns 0
T3A58 001:686.732 JLINK_WriteReg(R1, 0x00000400)
T3A58 001:686.739 - 0.009ms returns 0
T3A58 001:686.757 JLINK_WriteReg(R2, 0x20000188)
T3A58 001:686.763 - 0.008ms returns 0
T3A58 001:686.769 JLINK_WriteReg(R3, 0x00000000)
T3A58 001:686.774 - 0.008ms returns 0
T3A58 001:686.780 JLINK_WriteReg(R4, 0x00000000)
T3A58 001:686.786 - 0.008ms returns 0
T3A58 001:686.792 JLINK_WriteReg(R5, 0x00000000)
T3A58 001:686.797 - 0.008ms returns 0
T3A58 001:686.803 JLINK_WriteReg(R6, 0x00000000)
T3A58 001:686.809 - 0.008ms returns 0
T3A58 001:686.815 JLINK_WriteReg(R7, 0x00000000)
T3A58 001:686.820 - 0.008ms returns 0
T3A58 001:686.826 JLINK_WriteReg(R8, 0x00000000)
T3A58 001:686.832 - 0.008ms returns 0
T3A58 001:686.838 JLINK_WriteReg(R9, 0x20000184)
T3A58 001:686.843 - 0.008ms returns 0
T3A58 001:686.849 JLINK_WriteReg(R10, 0x00000000)
T3A58 001:686.855 - 0.008ms returns 0
T3A58 001:686.861 JLINK_WriteReg(R11, 0x00000000)
T3A58 001:686.866 - 0.008ms returns 0
T3A58 001:686.872 JLINK_WriteReg(R12, 0x00000000)
T3A58 001:686.878 - 0.008ms returns 0
T3A58 001:686.884 JLINK_WriteReg(R13 (SP), 0x20001000)
T3A58 001:686.890 - 0.008ms returns 0
T3A58 001:686.896 JLINK_WriteReg(R14, 0x20000001)
T3A58 001:686.902 - 0.008ms returns 0
T3A58 001:686.908 JLINK_WriteReg(R15 (PC), 0x20000112)
T3A58 001:686.913 - 0.008ms returns 0
T3A58 001:686.919 JLINK_WriteReg(XPSR, 0x01000000)
T3A58 001:686.925 - 0.008ms returns 0
T3A58 001:686.931 JLINK_WriteReg(MSP, 0x20001000)
T3A58 001:686.936 - 0.008ms returns 0
T3A58 001:686.942 JLINK_WriteReg(PSP, 0x20001000)
T3A58 001:686.948 - 0.008ms returns 0
T3A58 001:686.954 JLINK_WriteReg(CFBP, 0x00000000)
T3A58 001:686.959 - 0.008ms returns 0
T3A58 001:686.970 JLINK_SetBPEx(Addr = 0x20000000, Type = 0xFFFFFFF2)
T3A58 001:686.979 - 0.011ms returns 0x00000008
T3A58 001:686.985 JLINK_Go()
T3A58 001:686.997   CPU_ReadMem(4 bytes @ 0xE0001000)
T3A58 001:698.204 - 11.226ms
T3A58 001:698.219 JLINK_IsHalted()
T3A58 001:701.024 - 2.810ms returns FALSE
T3A58 001:701.034 JLINK_HasError()
T3A58 001:702.412 JLINK_IsHalted()
T3A58 001:710.389   CPU_ReadMem(2 bytes @ 0x20000000)
T3A58 001:713.052 - 10.644ms returns TRUE
T3A58 001:713.061 JLINK_ReadReg(R15 (PC))
T3A58 001:713.068 - 0.009ms returns 0x20000000
T3A58 001:713.074 JLINK_ClrBPEx(BPHandle = 0x00000008)
T3A58 001:713.079 - 0.007ms returns 0x00
T3A58 001:713.085 JLINK_ReadReg(R0)
T3A58 001:713.090 - 0.007ms returns 0x00000000
T3A58 001:713.506 JLINK_WriteMem(0x20000188, 0x278 Bytes, ...)
T3A58 001:713.514   Data:  00 90 01 24 8D F8 04 40 00 25 8D F8 06 50 03 26 ...
T3A58 001:713.527   CPU_WriteMem(632 bytes @ 0x20000188)
T3A58 001:723.390 - 9.891ms returns 0x278
T3A58 001:723.402 JLINK_WriteMem(0x20000400, 0x188 Bytes, ...)
T3A58 001:723.409   Data:  00 21 A6 20 00 F0 ED F8 00 21 AF 20 00 F0 E9 F8 ...
T3A58 001:723.422   CPU_WriteMem(392 bytes @ 0x20000400)
T3A58 001:730.665 - 7.275ms returns 0x188
T3A58 001:730.689 JLINK_HasError()
T3A58 001:730.699 JLINK_WriteReg(R0, 0x08000C00)
T3A58 001:730.709 - 0.013ms returns 0
T3A58 001:730.717 JLINK_WriteReg(R1, 0x00000400)
T3A58 001:730.722 - 0.008ms returns 0
T3A58 001:730.730 JLINK_WriteReg(R2, 0x20000188)
T3A58 001:730.735 - 0.008ms returns 0
T3A58 001:730.743 JLINK_WriteReg(R3, 0x00000000)
T3A58 001:730.748 - 0.008ms returns 0
T3A58 001:730.756 JLINK_WriteReg(R4, 0x00000000)
T3A58 001:730.761 - 0.008ms returns 0
T3A58 001:730.768 JLINK_WriteReg(R5, 0x00000000)
T3A58 001:730.774 - 0.008ms returns 0
T3A58 001:730.781 JLINK_WriteReg(R6, 0x00000000)
T3A58 001:730.787 - 0.008ms returns 0
T3A58 001:730.794 JLINK_WriteReg(R7, 0x00000000)
T3A58 001:730.800 - 0.008ms returns 0
T3A58 001:730.807 JLINK_WriteReg(R8, 0x00000000)
T3A58 001:730.813 - 0.008ms returns 0
T3A58 001:730.820 JLINK_WriteReg(R9, 0x20000184)
T3A58 001:730.825 - 0.008ms returns 0
T3A58 001:730.833 JLINK_WriteReg(R10, 0x00000000)
T3A58 001:730.838 - 0.008ms returns 0
T3A58 001:730.845 JLINK_WriteReg(R11, 0x00000000)
T3A58 001:730.851 - 0.008ms returns 0
T3A58 001:730.858 JLINK_WriteReg(R12, 0x00000000)
T3A58 001:730.864 - 0.008ms returns 0
T3A58 001:730.871 JLINK_WriteReg(R13 (SP), 0x20001000)
T3A58 001:730.877 - 0.008ms returns 0
T3A58 001:730.884 JLINK_WriteReg(R14, 0x20000001)
T3A58 001:730.890 - 0.008ms returns 0
T3A58 001:730.897 JLINK_WriteReg(R15 (PC), 0x20000112)
T3A58 001:730.903 - 0.008ms returns 0
T3A58 001:730.910 JLINK_WriteReg(XPSR, 0x01000000)
T3A58 001:730.916 - 0.008ms returns 0
T3A58 001:730.923 JLINK_WriteReg(MSP, 0x20001000)
T3A58 001:730.929 - 0.008ms returns 0
T3A58 001:730.936 JLINK_WriteReg(PSP, 0x20001000)
T3A58 001:730.941 - 0.008ms returns 0
T3A58 001:730.948 JLINK_WriteReg(CFBP, 0x00000000)
T3A58 001:730.954 - 0.008ms returns 0
T3A58 001:730.961 JLINK_SetBPEx(Addr = 0x20000000, Type = 0xFFFFFFF2)
T3A58 001:730.968 - 0.009ms returns 0x00000009
T3A58 001:730.976 JLINK_Go()
T3A58 001:730.990   CPU_ReadMem(4 bytes @ 0xE0001000)
T3A58 001:742.207 - 11.238ms
T3A58 001:742.221 JLINK_IsHalted()
T3A58 001:745.028 - 2.812ms returns FALSE
T3A58 001:745.039 JLINK_HasError()
T3A58 001:749.333 JLINK_IsHalted()
T3A58 001:757.405   CPU_ReadMem(2 bytes @ 0x20000000)
T3A58 001:760.058 - 10.730ms returns TRUE
T3A58 001:760.069 JLINK_ReadReg(R15 (PC))
T3A58 001:760.076 - 0.009ms returns 0x20000000
T3A58 001:760.082 JLINK_ClrBPEx(BPHandle = 0x00000009)
T3A58 001:760.088 - 0.007ms returns 0x00
T3A58 001:760.093 JLINK_ReadReg(R0)
T3A58 001:760.099 - 0.007ms returns 0x00000000
T3A58 001:760.487 JLINK_WriteMem(0x20000188, 0x278 Bytes, ...)
T3A58 001:760.496   Data:  59 46 FF F7 8F FF 64 1C E4 B2 AC 42 DF D3 BD E8 ...
T3A58 001:760.509   CPU_WriteMem(632 bytes @ 0x20000188)
T3A58 001:770.355 - 9.873ms returns 0x278
T3A58 001:770.367 JLINK_WriteMem(0x20000400, 0x188 Bytes, ...)
T3A58 001:770.379   Data:  01 20 08 70 05 A0 01 F0 3D F9 BD E8 10 40 4F F4 ...
T3A58 001:770.391   CPU_WriteMem(392 bytes @ 0x20000400)
T3A58 001:777.660 - 7.299ms returns 0x188
T3A58 001:777.674 JLINK_HasError()
T3A58 001:777.708 JLINK_WriteReg(R0, 0x08001000)
T3A58 001:777.716 - 0.011ms returns 0
T3A58 001:777.723 JLINK_WriteReg(R1, 0x00000400)
T3A58 001:777.728 - 0.008ms returns 0
T3A58 001:777.735 JLINK_WriteReg(R2, 0x20000188)
T3A58 001:777.740 - 0.008ms returns 0
T3A58 001:777.746 JLINK_WriteReg(R3, 0x00000000)
T3A58 001:777.752 - 0.008ms returns 0
T3A58 001:777.758 JLINK_WriteReg(R4, 0x00000000)
T3A58 001:777.763 - 0.008ms returns 0
T3A58 001:777.770 JLINK_WriteReg(R5, 0x00000000)
T3A58 001:777.776 - 0.008ms returns 0
T3A58 001:777.782 JLINK_WriteReg(R6, 0x00000000)
T3A58 001:777.789 - 0.008ms returns 0
T3A58 001:777.795 JLINK_WriteReg(R7, 0x00000000)
T3A58 001:777.800 - 0.008ms returns 0
T3A58 001:777.806 JLINK_WriteReg(R8, 0x00000000)
T3A58 001:777.812 - 0.008ms returns 0
T3A58 001:777.817 JLINK_WriteReg(R9, 0x20000184)
T3A58 001:777.823 - 0.008ms returns 0
T3A58 001:777.829 JLINK_WriteReg(R10, 0x00000000)
T3A58 001:777.834 - 0.008ms returns 0
T3A58 001:777.840 JLINK_WriteReg(R11, 0x00000000)
T3A58 001:777.846 - 0.008ms returns 0
T3A58 001:777.852 JLINK_WriteReg(R12, 0x00000000)
T3A58 001:777.857 - 0.008ms returns 0
T3A58 001:777.863 JLINK_WriteReg(R13 (SP), 0x20001000)
T3A58 001:777.869 - 0.008ms returns 0
T3A58 001:777.875 JLINK_WriteReg(R14, 0x20000001)
T3A58 001:777.881 - 0.008ms returns 0
T3A58 001:777.887 JLINK_WriteReg(R15 (PC), 0x20000112)
T3A58 001:777.892 - 0.008ms returns 0
T3A58 001:777.898 JLINK_WriteReg(XPSR, 0x01000000)
T3A58 001:777.904 - 0.008ms returns 0
T3A58 001:777.910 JLINK_WriteReg(MSP, 0x20001000)
T3A58 001:777.915 - 0.008ms returns 0
T3A58 001:777.921 JLINK_WriteReg(PSP, 0x20001000)
T3A58 001:777.927 - 0.008ms returns 0
T3A58 001:777.932 JLINK_WriteReg(CFBP, 0x00000000)
T3A58 001:777.938 - 0.008ms returns 0
T3A58 001:777.944 JLINK_SetBPEx(Addr = 0x20000000, Type = 0xFFFFFFF2)
T3A58 001:777.951 - 0.009ms returns 0x0000000A
T3A58 001:777.957 JLINK_Go()
T3A58 001:777.969   CPU_ReadMem(4 bytes @ 0xE0001000)
T3A58 001:789.211 - 11.260ms
T3A58 001:789.222 JLINK_IsHalted()
T3A58 001:792.032 - 2.813ms returns FALSE
T3A58 001:792.040 JLINK_HasError()
T3A58 001:793.291 JLINK_IsHalted()
T3A58 001:801.394   CPU_ReadMem(2 bytes @ 0x20000000)
T3A58 001:804.061 - 10.773ms returns TRUE
T3A58 001:804.071 JLINK_ReadReg(R15 (PC))
T3A58 001:804.077 - 0.009ms returns 0x20000000
T3A58 001:804.084 JLINK_ClrBPEx(BPHandle = 0x0000000A)
T3A58 001:804.090 - 0.007ms returns 0x00
T3A58 001:804.096 JLINK_ReadReg(R0)
T3A58 001:804.101 - 0.007ms returns 0x00000000
T3A58 001:804.486 JLINK_WriteMem(0x20000188, 0x278 Bytes, ...)
T3A58 001:804.495   Data:  A0 70 10 BD 04 28 00 40 3F FF FF 00 02 46 00 20 ...
T3A58 001:804.507   CPU_WriteMem(632 bytes @ 0x20000188)
T3A58 001:814.364 - 9.884ms returns 0x278
T3A58 001:814.375 JLINK_WriteMem(0x20000400, 0x188 Bytes, ...)
T3A58 001:814.380   Data:  3F FF FF 00 2D E9 F0 41 05 46 0C 46 00 26 00 20 ...
T3A58 001:814.392   CPU_WriteMem(392 bytes @ 0x20000400)
T3A58 001:821.669 - 7.304ms returns 0x188
T3A58 001:821.686 JLINK_HasError()
T3A58 001:821.692 JLINK_WriteReg(R0, 0x08001400)
T3A58 001:821.700 - 0.010ms returns 0
T3A58 001:821.706 JLINK_WriteReg(R1, 0x00000400)
T3A58 001:821.711 - 0.007ms returns 0
T3A58 001:821.717 JLINK_WriteReg(R2, 0x20000188)
T3A58 001:821.722 - 0.007ms returns 0
T3A58 001:821.727 JLINK_WriteReg(R3, 0x00000000)
T3A58 001:821.732 - 0.007ms returns 0
T3A58 001:821.738 JLINK_WriteReg(R4, 0x00000000)
T3A58 001:821.743 - 0.007ms returns 0
T3A58 001:821.748 JLINK_WriteReg(R5, 0x00000000)
T3A58 001:821.753 - 0.007ms returns 0
T3A58 001:821.759 JLINK_WriteReg(R6, 0x00000000)
T3A58 001:821.764 - 0.007ms returns 0
T3A58 001:821.769 JLINK_WriteReg(R7, 0x00000000)
T3A58 001:821.774 - 0.007ms returns 0
T3A58 001:821.779 JLINK_WriteReg(R8, 0x00000000)
T3A58 001:821.789 - 0.014ms returns 0
T3A58 001:821.797 JLINK_WriteReg(R9, 0x20000184)
T3A58 001:821.802 - 0.007ms returns 0
T3A58 001:821.808 JLINK_WriteReg(R10, 0x00000000)
T3A58 001:821.813 - 0.007ms returns 0
T3A58 001:821.818 JLINK_WriteReg(R11, 0x00000000)
T3A58 001:821.823 - 0.007ms returns 0
T3A58 001:821.829 JLINK_WriteReg(R12, 0x00000000)
T3A58 001:821.834 - 0.007ms returns 0
T3A58 001:821.839 JLINK_WriteReg(R13 (SP), 0x20001000)
T3A58 001:821.845 - 0.007ms returns 0
T3A58 001:821.850 JLINK_WriteReg(R14, 0x20000001)
T3A58 001:821.855 - 0.007ms returns 0
T3A58 001:821.860 JLINK_WriteReg(R15 (PC), 0x20000112)
T3A58 001:821.866 - 0.007ms returns 0
T3A58 001:821.871 JLINK_WriteReg(XPSR, 0x01000000)
T3A58 001:821.876 - 0.007ms returns 0
T3A58 001:821.881 JLINK_WriteReg(MSP, 0x20001000)
T3A58 001:821.886 - 0.007ms returns 0
T3A58 001:821.892 JLINK_WriteReg(PSP, 0x20001000)
T3A58 001:821.897 - 0.007ms returns 0
T3A58 001:821.902 JLINK_WriteReg(CFBP, 0x00000000)
T3A58 001:821.907 - 0.007ms returns 0
T3A58 001:821.913 JLINK_SetBPEx(Addr = 0x20000000, Type = 0xFFFFFFF2)
T3A58 001:821.919 - 0.008ms returns 0x0000000B
T3A58 001:821.924 JLINK_Go()
T3A58 001:821.936   CPU_ReadMem(4 bytes @ 0xE0001000)
T3A58 001:833.219 - 11.301ms
T3A58 001:833.234 JLINK_IsHalted()
T3A58 001:836.037 - 2.811ms returns FALSE
T3A58 001:836.052 JLINK_HasError()
T3A58 001:838.169 JLINK_IsHalted()
T3A58 001:846.402   CPU_ReadMem(2 bytes @ 0x20000000)
T3A58 001:849.066 - 10.902ms returns TRUE
T3A58 001:849.077 JLINK_ReadReg(R15 (PC))
T3A58 001:849.084 - 0.010ms returns 0x20000000
T3A58 001:849.090 JLINK_ClrBPEx(BPHandle = 0x0000000B)
T3A58 001:849.096 - 0.007ms returns 0x00
T3A58 001:849.101 JLINK_ReadReg(R0)
T3A58 001:849.107 - 0.007ms returns 0x00000000
T3A58 001:849.478 JLINK_WriteMem(0x20000188, 0x278 Bytes, ...)
